!Agilent Technologies,N5242A,MY48220567,A.08.20.12
!Agilent N5242A: A.08.20.12
!Date: Thursday, May 22, 2025 17:52:54
!Correction: S11(Full 2 Port(1,2)) 
!S21(Full 2 Port(1,2)) 
!S12(Full 2 Port(1,2)) 
!S22(Full 2 Port(1,2)) 
!S2P File: Measurements: S11, S21, S12, S22:
# Hz S  dB   R 50
10000000 -7.963977e-001 -6.758432e+001 -8.515647e+000 1.947843e+001 -8.427403e+000 1.963460e+001 -8.954898e-001 -6.948592e+001
10050000 -8.848778e-001 -6.896032e+001 -8.225278e+000 1.820477e+001 -8.194184e+000 1.821229e+001 -9.249044e-001 -7.073487e+001
10100000 -9.183950e-001 -7.053735e+001 -7.927845e+000 1.642719e+001 -7.882212e+000 1.689975e+001 -1.003235e+000 -7.184703e+001
10150000 -9.920085e-001 -7.135574e+001 -7.583395e+000 1.521324e+001 -7.612813e+000 1.578175e+001 -8.542812e-001 -7.315945e+001
10200000 -1.043764e+000 -7.284831e+001 -7.368677e+000 1.401966e+001 -7.343070e+000 1.421538e+001 -1.078370e+000 -7.486050e+001
10250000 -1.134944e+000 -7.375097e+001 -7.127707e+000 1.257713e+001 -7.094556e+000 1.300382e+001 -1.244113e+000 -7.631445e+001
10300000 -1.226224e+000 -7.561749e+001 -6.847696e+000 1.062658e+001 -6.802656e+000 1.117093e+001 -1.278646e+000 -7.773625e+001
10350000 -1.304191e+000 -7.702775e+001 -6.554067e+000 9.431868e+000 -6.512572e+000 9.507077e+000 -1.396116e+000 -7.909917e+001
10400000 -1.404124e+000 -7.840083e+001 -6.305646e+000 8.147976e+000 -6.229227e+000 8.326052e+000 -1.479628e+000 -8.069839e+001
10450000 -1.445963e+000 -7.989485e+001 -5.968524e+000 6.398750e+000 -5.966731e+000 6.640339e+000 -1.533639e+000 -8.232140e+001
10500000 -1.558145e+000 -8.139075e+001 -5.811644e+000 4.927220e+000 -5.710932e+000 4.794621e+000 -1.694902e+000 -8.392097e+001
10550000 -1.731717e+000 -8.313998e+001 -5.516871e+000 3.100579e+000 -5.467154e+000 3.319806e+000 -1.813265e+000 -8.553323e+001
10600000 -1.832062e+000 -8.485477e+001 -5.284080e+000 1.376839e+000 -5.212956e+000 1.477704e+000 -1.895523e+000 -8.704451e+001
10650000 -1.996422e+000 -8.628273e+001 -5.054279e+000 -5.355503e-003 -5.000128e+000 -3.204609e-001 -2.052774e+000 -8.864024e+001
10700000 -2.102464e+000 -8.765910e+001 -4.790387e+000 -1.914372e+000 -4.705644e+000 -1.959466e+000 -2.165910e+000 -9.088351e+001
10750000 -2.246707e+000 -8.945341e+001 -4.545706e+000 -3.549762e+000 -4.473357e+000 -3.600832e+000 -2.356641e+000 -9.239655e+001
10800000 -2.376786e+000 -9.114415e+001 -4.284708e+000 -5.503743e+000 -4.308533e+000 -5.807147e+000 -2.487357e+000 -9.417627e+001
10850000 -2.628057e+000 -9.298075e+001 -4.092220e+000 -7.391950e+000 -4.063535e+000 -7.562315e+000 -2.650076e+000 -9.611264e+001
10900000 -2.782508e+000 -9.481078e+001 -3.835102e+000 -9.275540e+000 -3.812689e+000 -9.515237e+000 -2.840113e+000 -9.788425e+001
10950000 -2.934941e+000 -9.670013e+001 -3.626851e+000 -1.144146e+001 -3.563213e+000 -1.142092e+001 -3.032528e+000 -9.972415e+001
11000000 -3.098546e+000 -9.812717e+001 -3.422042e+000 -1.311438e+001 -3.369799e+000 -1.312242e+001 -3.212966e+000 -1.018571e+002
11050000 -3.361190e+000 -1.002332e+002 -3.247783e+000 -1.530575e+001 -3.210336e+000 -1.537064e+001 -3.435282e+000 -1.037530e+002
11100000 -3.524764e+000 -1.022998e+002 -3.051133e+000 -1.713841e+001 -2.980497e+000 -1.733715e+001 -3.690014e+000 -1.054733e+002
11150000 -3.802282e+000 -1.037768e+002 -2.804630e+000 -1.933842e+001 -2.819463e+000 -1.927617e+001 -3.942180e+000 -1.077988e+002
11200000 -4.089505e+000 -1.058065e+002 -2.701123e+000 -2.137340e+001 -2.637378e+000 -2.147831e+001 -4.143654e+000 -1.096191e+002
11250000 -4.373278e+000 -1.077775e+002 -2.461958e+000 -2.333964e+001 -2.437282e+000 -2.341541e+001 -4.378583e+000 -1.117478e+002
11300000 -4.607175e+000 -1.096202e+002 -2.326714e+000 -2.543008e+001 -2.286432e+000 -2.557045e+001 -4.708139e+000 -1.134942e+002
11350000 -4.906063e+000 -1.117326e+002 -2.173000e+000 -2.752490e+001 -2.143421e+000 -2.772377e+001 -5.031579e+000 -1.155474e+002
11400000 -5.210177e+000 -1.129146e+002 -2.018574e+000 -2.939197e+001 -1.962133e+000 -2.961776e+001 -5.307849e+000 -1.179576e+002
11450000 -5.546139e+000 -1.151241e+002 -1.868315e+000 -3.141907e+001 -1.850726e+000 -3.141048e+001 -5.619945e+000 -1.198000e+002
11500000 -5.908307e+000 -1.169287e+002 -1.748394e+000 -3.335155e+001 -1.704909e+000 -3.383773e+001 -5.948375e+000 -1.217954e+002
11550000 -6.181213e+000 -1.187760e+002 -1.589546e+000 -3.570663e+001 -1.593923e+000 -3.587551e+001 -6.414931e+000 -1.237944e+002
11600000 -6.625111e+000 -1.208358e+002 -1.534288e+000 -3.771590e+001 -1.535735e+000 -3.783392e+001 -6.631612e+000 -1.260136e+002
11650000 -6.965057e+000 -1.227473e+002 -1.403397e+000 -3.985708e+001 -1.409264e+000 -3.990647e+001 -7.130267e+000 -1.281735e+002
11700000 -7.354332e+000 -1.238398e+002 -1.286407e+000 -4.200546e+001 -1.250454e+000 -4.208747e+001 -7.546216e+000 -1.298764e+002
11750000 -7.795156e+000 -1.260200e+002 -1.221401e+000 -4.387658e+001 -1.209719e+000 -4.413244e+001 -7.876743e+000 -1.317222e+002
11800000 -8.274999e+000 -1.273027e+002 -1.121361e+000 -4.577540e+001 -1.106755e+000 -4.605305e+001 -8.345016e+000 -1.343870e+002
11850000 -8.740592e+000 -1.291639e+002 -1.034910e+000 -4.781313e+001 -9.957697e-001 -4.795220e+001 -8.759298e+000 -1.362846e+002
11900000 -9.143044e+000 -1.305412e+002 -9.556708e-001 -5.000521e+001 -9.675131e-001 -4.998484e+001 -9.244494e+000 -1.385917e+002
11950000 -9.606768e+000 -1.325917e+002 -8.624535e-001 -5.186058e+001 -9.077379e-001 -5.181913e+001 -9.750770e+000 -1.396137e+002
12000000 -1.012105e+001 -1.342234e+002 -8.227577e-001 -5.395599e+001 -8.269495e-001 -5.395042e+001 -1.016114e+001 -1.417008e+002
12050000 -1.056653e+001 -1.350651e+002 -7.868684e-001 -5.585172e+001 -7.836118e-001 -5.598840e+001 -1.067501e+001 -1.438997e+002
12100000 -1.115892e+001 -1.374245e+002 -7.350205e-001 -5.772758e+001 -7.314448e-001 -5.786475e+001 -1.121669e+001 -1.456409e+002
12150000 -1.166811e+001 -1.384657e+002 -6.486781e-001 -5.951370e+001 -6.695694e-001 -5.977909e+001 -1.169186e+001 -1.478352e+002
12200000 -1.221417e+001 -1.392107e+002 -6.150036e-001 -6.156941e+001 -6.291282e-001 -6.170878e+001 -1.233071e+001 -1.500156e+002
12250000 -1.283266e+001 -1.396983e+002 -5.627843e-001 -6.338887e+001 -5.824847e-001 -6.357182e+001 -1.294082e+001 -1.514380e+002
12300000 -1.345214e+001 -1.417409e+002 -5.281483e-001 -6.508556e+001 -5.501876e-001 -6.513552e+001 -1.360152e+001 -1.532956e+002
12350000 -1.418583e+001 -1.425399e+002 -5.167010e-001 -6.692055e+001 -5.028141e-001 -6.685574e+001 -1.418421e+001 -1.554231e+002
12400000 -1.478110e+001 -1.435547e+002 -4.725271e-001 -6.851688e+001 -4.700160e-001 -6.875572e+001 -1.477130e+001 -1.569719e+002
12450000 -1.537677e+001 -1.450174e+002 -4.665643e-001 -7.025577e+001 -4.633923e-001 -7.042522e+001 -1.544715e+001 -1.596954e+002
12500000 -1.585319e+001 -1.439590e+002 -4.324461e-001 -7.216204e+001 -4.579829e-001 -7.213483e+001 -1.609616e+001 -1.607534e+002
12550000 -1.664990e+001 -1.459740e+002 -4.254016e-001 -7.375044e+001 -4.343364e-001 -7.383827e+001 -1.654267e+001 -1.644660e+002
12600000 -1.708681e+001 -1.474429e+002 -4.024737e-001 -7.547183e+001 -3.962359e-001 -7.536241e+001 -1.758671e+001 -1.651182e+002
12650000 -1.778474e+001 -1.473442e+002 -3.859651e-001 -7.699259e+001 -4.108979e-001 -7.698515e+001 -1.807126e+001 -1.683760e+002
12700000 -1.863539e+001 -1.477263e+002 -3.643011e-001 -7.859923e+001 -3.844599e-001 -7.862871e+001 -1.889355e+001 -1.693262e+002
12750000 -1.949544e+001 -1.486463e+002 -3.350400e-001 -8.002538e+001 -3.554412e-001 -8.021695e+001 -1.988815e+001 -1.716706e+002
12800000 -1.956005e+001 -1.489672e+002 -3.457599e-001 -8.192282e+001 -3.774085e-001 -8.194675e+001 -2.013648e+001 -1.715990e+002
12850000 -2.059999e+001 -1.491972e+002 -3.616882e-001 -8.326554e+001 -3.482158e-001 -8.331552e+001 -2.095995e+001 -1.765298e+002
12900000 -2.130683e+001 -1.503772e+002 -3.221637e-001 -8.490504e+001 -3.642089e-001 -8.472200e+001 -2.181264e+001 -1.790018e+002
12950000 -2.216182e+001 -1.493753e+002 -3.319468e-001 -8.620565e+001 -3.209674e-001 -8.645065e+001 -2.228835e+001 1.796405e+002
13000000 -2.269071e+001 -1.481783e+002 -3.148153e-001 -8.781175e+001 -3.304637e-001 -8.791631e+001 -2.292841e+001 1.779754e+002
13050000 -2.338402e+001 -1.506401e+002 -3.100854e-001 -8.924297e+001 -3.278846e-001 -8.922712e+001 -2.330466e+001 1.738836e+002
13100000 -2.399640e+001 -1.501052e+002 -3.196401e-001 -9.069793e+001 -3.082511e-001 -9.072832e+001 -2.399327e+001 1.714042e+002
13150000 -2.470330e+001 -1.473036e+002 -2.892289e-001 -9.225057e+001 -3.014764e-001 -9.217651e+001 -2.514392e+001 1.707367e+002
13200000 -2.501860e+001 -1.483993e+002 -2.801104e-001 -9.358569e+001 -3.223518e-001 -9.354104e+001 -2.552676e+001 1.654570e+002
13250000 -2.530573e+001 -1.497405e+002 -2.979841e-001 -9.509222e+001 -3.152385e-001 -9.495702e+001 -2.559891e+001 1.635494e+002
13300000 -2.594025e+001 -1.511852e+002 -3.049434e-001 -9.646899e+001 -3.015231e-001 -9.627860e+001 -2.600223e+001 1.594109e+002
13350000 -2.561880e+001 -1.509875e+002 -3.038337e-001 -9.767972e+001 -3.152330e-001 -9.775166e+001 -2.631631e+001 1.554272e+002
13400000 -2.667892e+001 -1.471150e+002 -2.983863e-001 -9.921195e+001 -2.855549e-001 -9.911010e+001 -2.672616e+001 1.586404e+002
13450000 -2.702782e+001 -1.550936e+002 -2.881231e-001 -1.003277e+002 -3.209077e-001 -1.004361e+002 -2.721147e+001 1.504697e+002
13500000 -2.674097e+001 -1.545634e+002 -2.881346e-001 -1.018219e+002 -3.208559e-001 -1.017250e+002 -2.706313e+001 1.486472e+002
13550000 -2.677132e+001 -1.592307e+002 -2.879116e-001 -1.031769e+002 -2.945774e-001 -1.030705e+002 -2.703703e+001 1.473326e+002
13600000 -2.746871e+001 -1.601228e+002 -2.755311e-001 -1.044171e+002 -2.924027e-001 -1.044179e+002 -2.744061e+001 1.420513e+002
13650000 -2.694997e+001 -1.642019e+002 -2.983147e-001 -1.057772e+002 -2.988085e-001 -1.058771e+002 -2.702205e+001 1.441989e+002
13700000 -2.710376e+001 -1.650392e+002 -3.031633e-001 -1.071356e+002 -2.697771e-001 -1.069581e+002 -2.685535e+001 1.406743e+002
13750000 -2.631779e+001 -1.684789e+002 -3.006800e-001 -1.083567e+002 -2.942069e-001 -1.083054e+002 -2.580883e+001 1.382768e+002
13800000 -2.616400e+001 -1.757315e+002 -3.020940e-001 -1.096092e+002 -3.158478e-001 -1.095255e+002 -2.587481e+001 1.372901e+002
13850000 -2.628708e+001 -1.751261e+002 -2.892584e-001 -1.109375e+002 -2.973173e-001 -1.108835e+002 -2.548439e+001 1.356267e+002
13900000 -2.561762e+001 1.773519e+002 -2.966119e-001 -1.121909e+002 -3.069774e-001 -1.120240e+002 -2.467133e+001 1.368775e+002
13950000 -2.536995e+001 1.741290e+002 -2.893750e-001 -1.133642e+002 -2.903978e-001 -1.134414e+002 -2.414272e+001 1.331849e+002
14000000 -2.419360e+001 1.731635e+002 -3.065614e-001 -1.146875e+002 -2.867417e-001 -1.146971e+002 -2.422371e+001 1.342121e+002
14050000 -2.408681e+001 1.684108e+002 -2.973295e-001 -1.158851e+002 -3.100439e-001 -1.158849e+002 -2.319372e+001 1.344067e+002
14100000 -2.347860e+001 1.670351e+002 -3.055835e-001 -1.172117e+002 -3.000545e-001 -1.172502e+002 -2.252958e+001 1.315887e+002
14150000 -2.298073e+001 1.632933e+002 -3.163557e-001 -1.185994e+002 -3.124892e-001 -1.184954e+002 -2.172059e+001 1.325165e+002
14200000 -2.257423e+001 1.610301e+002 -3.027471e-001 -1.197288e+002 -3.055966e-001 -1.196690e+002 -2.160588e+001 1.322784e+002
14250000 -2.192625e+001 1.579718e+002 -3.119871e-001 -1.207775e+002 -3.209173e-001 -1.209474e+002 -2.084168e+001 1.315024e+002
14300000 -2.106365e+001 1.556030e+002 -3.111889e-001 -1.221579e+002 -3.157046e-001 -1.222484e+002 -2.052208e+001 1.317583e+002
14350000 -2.062291e+001 1.534928e+002 -3.135043e-001 -1.233237e+002 -3.053522e-001 -1.233144e+002 -1.967784e+001 1.307794e+002
14400000 -1.977225e+001 1.509102e+002 -3.444110e-001 -1.246149e+002 -3.599244e-001 -1.246226e+002 -1.911696e+001 1.300373e+002
14450000 -1.935659e+001 1.487524e+002 -3.364437e-001 -1.257807e+002 -3.408940e-001 -1.258617e+002 -1.882958e+001 1.296993e+002
14500000 -1.874431e+001 1.482811e+002 -3.668149e-001 -1.271076e+002 -3.634113e-001 -1.270568e+002 -1.804936e+001 1.275845e+002
14550000 -1.821890e+001 1.455345e+002 -3.421930e-001 -1.284052e+002 -3.634107e-001 -1.283251e+002 -1.792197e+001 1.285302e+002
14600000 -1.776463e+001 1.453272e+002 -3.687678e-001 -1.295634e+002 -3.709013e-001 -1.295144e+002 -1.712213e+001 1.269097e+002
14650000 -1.720727e+001 1.426807e+002 -3.785704e-001 -1.306899e+002 -3.868537e-001 -1.307276e+002 -1.675829e+001 1.260213e+002
14700000 -1.672398e+001 1.410135e+002 -4.066605e-001 -1.318813e+002 -4.219204e-001 -1.318571e+002 -1.628169e+001 1.241317e+002
14750000 -1.623198e+001 1.397813e+002 -3.932686e-001 -1.331723e+002 -4.019222e-001 -1.329576e+002 -1.591282e+001 1.247971e+002
14800000 -1.563938e+001 1.371598e+002 -4.262680e-001 -1.344326e+002 -4.493173e-001 -1.343084e+002 -1.521900e+001 1.236556e+002
14850000 -1.533190e+001 1.361084e+002 -4.376157e-001 -1.356314e+002 -4.358500e-001 -1.354955e+002 -1.485872e+001 1.230044e+002
14900000 -1.481980e+001 1.342842e+002 -4.580133e-001 -1.367080e+002 -4.662626e-001 -1.366496e+002 -1.443917e+001 1.224665e+002
14950000 -1.426499e+001 1.327619e+002 -4.596113e-001 -1.379646e+002 -4.752572e-001 -1.379831e+002 -1.415622e+001 1.221753e+002
15000000 -1.391665e+001 1.314347e+002 -4.854603e-001 -1.391729e+002 -4.896255e-001 -1.389723e+002 -1.371466e+001 1.199582e+002
15050000 -1.349014e+001 1.306290e+002 -4.971353e-001 -1.404479e+002 -5.122832e-001 -1.404000e+002 -1.333470e+001 1.198792e+002
15100000 -1.309120e+001 1.294661e+002 -5.497658e-001 -1.416133e+002 -5.331610e-001 -1.414453e+002 -1.289374e+001 1.185532e+002
15150000 -1.265143e+001 1.276100e+002 -5.717191e-001 -1.427413e+002 -5.715486e-001 -1.427079e+002 -1.253624e+001 1.171025e+002
15200000 -1.224432e+001 1.252970e+002 -5.862640e-001 -1.438785e+002 -6.079894e-001 -1.436781e+002 -1.227110e+001 1.168977e+002
15250000 -1.203317e+001 1.242401e+002 -5.999641e-001 -1.451614e+002 -6.256432e-001 -1.451230e+002 -1.176589e+001 1.163709e+002
15300000 -1.156714e+001 1.227045e+002 -6.396808e-001 -1.462303e+002 -6.382679e-001 -1.463320e+002 -1.156458e+001 1.152710e+002
15350000 -1.124846e+001 1.221812e+002 -6.599630e-001 -1.474754e+002 -6.838501e-001 -1.473434e+002 -1.115360e+001 1.142957e+002
15400000 -1.098116e+001 1.209938e+002 -6.808482e-001 -1.485846e+002 -7.068762e-001 -1.485610e+002 -1.078122e+001 1.135134e+002
15450000 -1.055080e+001 1.195628e+002 -7.274652e-001 -1.497930e+002 -7.475247e-001 -1.497022e+002 -1.054324e+001 1.122840e+002
15500000 -1.028107e+001 1.186056e+002 -7.663451e-001 -1.508842e+002 -7.670348e-001 -1.508019e+002 -1.024654e+001 1.109504e+002
15550000 -1.000255e+001 1.176349e+002 -7.966228e-001 -1.520535e+002 -8.063630e-001 -1.520696e+002 -9.938983e+000 1.103496e+002
15600000 -9.658476e+000 1.159277e+002 -8.293276e-001 -1.533587e+002 -8.452078e-001 -1.530668e+002 -9.676217e+000 1.094303e+002
15650000 -9.456597e+000 1.146467e+002 -8.716278e-001 -1.544668e+002 -8.939668e-001 -1.543540e+002 -9.325407e+000 1.084603e+002
15700000 -9.051388e+000 1.136310e+002 -9.126983e-001 -1.554595e+002 -9.095922e-001 -1.554427e+002 -9.182543e+000 1.071813e+002
15750000 -8.890211e+000 1.121779e+002 -9.480964e-001 -1.567363e+002 -9.637651e-001 -1.563907e+002 -8.865726e+000 1.067968e+002
15800000 -8.660854e+000 1.107675e+002 -1.010917e+000 -1.576760e+002 -1.011770e+000 -1.576225e+002 -8.641829e+000 1.059175e+002
15850000 -8.412504e+000 1.099816e+002 -1.051995e+000 -1.587387e+002 -1.036403e+000 -1.587418e+002 -8.341036e+000 1.046242e+002
15900000 -8.130870e+000 1.087860e+002 -1.073663e+000 -1.599640e+002 -1.080237e+000 -1.598350e+002 -8.172033e+000 1.034752e+002
15950000 -7.895653e+000 1.075850e+002 -1.143800e+000 -1.610890e+002 -1.135732e+000 -1.609755e+002 -7.876447e+000 1.026307e+002
16000000 -7.654176e+000 1.063439e+002 -1.181631e+000 -1.622135e+002 -1.204256e+000 -1.619512e+002 -7.647558e+000 1.019009e+002
16050000 -7.458701e+000 1.056049e+002 -1.245480e+000 -1.631532e+002 -1.243896e+000 -1.631774e+002 -7.475494e+000 1.005699e+002
16100000 -7.246029e+000 1.044483e+002 -1.305688e+000 -1.641682e+002 -1.288808e+000 -1.641891e+002 -7.260463e+000 9.954934e+001
16150000 -7.067299e+000 1.033504e+002 -1.353006e+000 -1.652949e+002 -1.359646e+000 -1.652697e+002 -7.013827e+000 9.862095e+001
16200000 -6.817702e+000 1.022725e+002 -1.392292e+000 -1.665167e+002 -1.418542e+000 -1.663010e+002 -6.821132e+000 9.781146e+001
16250000 -6.606850e+000 1.010570e+002 -1.449118e+000 -1.674703e+002 -1.461187e+000 -1.673180e+002 -6.669504e+000 9.679085e+001
16300000 -6.460908e+000 9.995950e+001 -1.523582e+000 -1.686025e+002 -1.507269e+000 -1.683413e+002 -6.460856e+000 9.622940e+001
16350000 -6.271204e+000 9.904461e+001 -1.556160e+000 -1.695813e+002 -1.560717e+000 -1.693383e+002 -6.307942e+000 9.527584e+001
16400000 -6.088861e+000 9.795527e+001 -1.625117e+000 -1.707520e+002 -1.626219e+000 -1.703953e+002 -6.120402e+000 9.419492e+001
16450000 -5.909907e+000 9.677804e+001 -1.688532e+000 -1.715167e+002 -1.674189e+000 -1.715126e+002 -5.969131e+000 9.340411e+001
16500000 -5.768076e+000 9.595743e+001 -1.747176e+000 -1.725636e+002 -1.726912e+000 -1.722740e+002 -5.775796e+000 9.238418e+001
16550000 -5.549494e+000 9.484425e+001 -1.815928e+000 -1.736064e+002 -1.798849e+000 -1.734350e+002 -5.622365e+000 9.140360e+001
16600000 -5.443467e+000 9.406013e+001 -1.861090e+000 -1.743972e+002 -1.859706e+000 -1.744545e+002 -5.487952e+000 9.049821e+001
16650000 -5.277389e+000 9.285458e+001 -1.921699e+000 -1.754671e+002 -1.938582e+000 -1.753713e+002 -5.344155e+000 8.989099e+001
16700000 -5.134527e+000 9.170759e+001 -1.992124e+000 -1.765399e+002 -1.991906e+000 -1.763411e+002 -5.194423e+000 8.913646e+001
16750000 -5.018422e+000 9.111438e+001 -2.083104e+000 -1.774058e+002 -2.046615e+000 -1.772992e+002 -5.051033e+000 8.795383e+001
16800000 -4.867341e+000 9.028931e+001 -2.135677e+000 -1.783484e+002 -2.133366e+000 -1.782961e+002 -4.903951e+000 8.705258e+001
16850000 -4.748028e+000 8.930355e+001 -2.186224e+000 -1.792047e+002 -2.210357e+000 -1.790837e+002 -4.779884e+000 8.609255e+001
16900000 -4.575053e+000 8.840729e+001 -2.272335e+000 1.798143e+002 -2.249691e+000 1.799803e+002 -4.680338e+000 8.542384e+001
16950000 -4.456571e+000 8.739581e+001 -2.341932e+000 1.789355e+002 -2.326630e+000 1.789189e+002 -4.550434e+000 8.462707e+001
17000000 -4.400979e+000 8.643571e+001 -2.411952e+000 1.780819e+002 -2.397534e+000 1.782435e+002 -4.404245e+000 8.378979e+001
17050000 -4.260526e+000 8.523057e+001 -2.504361e+000 1.771391e+002 -2.478247e+000 1.772373e+002 -4.276542e+000 8.319984e+001
17100000 -4.155337e+000 8.463322e+001 -2.553145e+000 1.762272e+002 -2.561137e+000 1.763974e+002 -4.184322e+000 8.227162e+001
17150000 -4.011723e+000 8.369178e+001 -2.655504e+000 1.752879e+002 -2.635458e+000 1.755636e+002 -4.106144e+000 8.132903e+001
17200000 -3.898941e+000 8.277290e+001 -2.687759e+000 1.743551e+002 -2.690476e+000 1.745173e+002 -3.967701e+000 8.083078e+001
17250000 -3.800835e+000 8.207919e+001 -2.768353e+000 1.737222e+002 -2.756352e+000 1.737755e+002 -3.870642e+000 8.000733e+001
17300000 -3.731345e+000 8.123959e+001 -2.851733e+000 1.728993e+002 -2.841478e+000 1.730778e+002 -3.757474e+000 7.907096e+001
17350000 -3.583973e+000 8.048669e+001 -2.938788e+000 1.721308e+002 -2.925796e+000 1.721438e+002 -3.716229e+000 7.813273e+001
17400000 -3.514830e+000 7.965073e+001 -3.002704e+000 1.711044e+002 -3.023594e+000 1.714816e+002 -3.576881e+000 7.745478e+001
17450000 -3.433294e+000 7.892808e+001 -3.070692e+000 1.704771e+002 -3.084167e+000 1.707333e+002 -3.517491e+000 7.665588e+001
17500000 -3.355117e+000 7.793797e+001 -3.151532e+000 1.696902e+002 -3.155717e+000 1.698886e+002 -3.410243e+000 7.605648e+001
17550000 -3.245360e+000 7.745464e+001 -3.240883e+000 1.689817e+002 -3.210493e+000 1.690695e+002 -3.361104e+000 7.528485e+001
17600000 -3.169331e+000 7.645601e+001 -3.329666e+000 1.681602e+002 -3.300085e+000 1.681904e+002 -3.257291e+000 7.456799e+001
17650000 -3.090871e+000 7.587449e+001 -3.363227e+000 1.674693e+002 -3.373752e+000 1.676409e+002 -3.167027e+000 7.389930e+001
